TF2E8 000:007.770   SEGGER J-Link V8.26 Log File
TF2E8 000:007.951   DLL Compiled: Apr 11 2025 07:49:49
TF2E8 000:007.959   Logging started @ 2026-05-12 03:40
TF2E8 000:007.966   Process: C:\Keil_v5\UV4\UV4.exe
TF2E8 000:007.986 - 7.973ms 
TF2E8 000:007.998 JLINK_SetWarnOutHandler(...)
TF2E8 000:008.005 - 0.009ms 
TF2E8 000:008.013 JLINK_OpenEx(...)
TF2E8 000:014.352   Firmware: J-Link V9 compiled May  7 2021 16:26:12
TF2E8 000:016.122   Firmware: J-Link V9 compiled May  7 2021 16:26:12
TF2E8 000:016.315   Decompressing FW timestamp took 138 us
TF2E8 000:025.074   Hardware: V9.40
TF2E8 000:025.113   S/N: 69400157
TF2E8 000:025.151   OEM: SEGGER
TF2E8 000:025.170   Feature(s): RDI, GDB, FlashDL, FlashBP, JFlash
TF2E8 000:026.862   Bootloader: (FW returned invalid version)
TF2E8 000:028.752   TELNET listener socket opened on port 19021
TF2E8 000:028.884   WEBSRV WEBSRV_Init(): Starting webserver thread(s)
TF2E8 000:029.253   WEBSRV Webserver running on local port 19080
TF2E8 000:029.370   Looking for J-Link GUI Server exe at: C:\Keil_v5\ARM\Segger\JLinkGUIServer.exe
TF2E8 000:029.455   Looking for J-Link GUI Server exe at: C:\Program Files\SEGGER\JLink_V826\JLinkGUIServer.exe
TF2E8 000:029.482   Forking J-Link GUI Server: C:\Program Files\SEGGER\JLink_V826\JLinkGUIServer.exe
TF2E8 000:070.849   J-Link GUI Server info: "J-Link GUI server V8.26 "
TF2E8 000:096.607 - 88.567ms returns "O.K."
TF2E8 000:096.656 JLINK_GetEmuCaps()
TF2E8 000:096.664 - 0.006ms returns 0xB9FF7BBF
TF2E8 000:096.675 JLINK_TIF_GetAvailable(...)
TF2E8 000:097.198 - 0.523ms 
TF2E8 000:097.205 JLINK_SetErrorOutHandler(...)
TF2E8 000:097.209 - 0.004ms 
TF2E8 000:097.239 JLINK_ExecCommand("ProjectFile = "C:\Claude Code Work Base\North EU Thermostat\FMD SW\PROJECT\JLinkSettings.ini"", ...). 
TF2E8 000:116.803   Ref file found at: C:\Keil_v5\ARM\Segger\JLinkDevices.ref
TF2E8 000:116.915   REF file references invalid XML file: C:\Program Files\SEGGER\JLink_V826\JLinkDevices.xml
TF2E8 000:123.729   Device "CORTEX-M3" selected.
TF2E8 000:124.204 - 26.968ms returns 0x00
TF2E8 000:127.528 JLINK_ExecCommand("Device = FT32F103RC", ...). 
TF2E8 000:131.119   Device "CORTEX-M3" selected.
TF2E8 000:131.541 - 3.977ms returns 0x00
TF2E8 000:131.558 JLINK_ExecCommand("DisableConnectionTimeout", ...). 
TF2E8 000:131.580   ERROR: Unknown command
TF2E8 000:131.586 - 0.022ms returns 0x01
TF2E8 000:131.592 JLINK_GetHardwareVersion()
TF2E8 000:131.596 - 0.004ms returns 94000
TF2E8 000:131.600 JLINK_GetDLLVersion()
TF2E8 000:131.604 - 0.003ms returns 82600
TF2E8 000:131.610 JLINK_GetOEMString(...)
TF2E8 000:131.617 JLINK_GetFirmwareString(...)
TF2E8 000:131.621 - 0.005ms 
TF2E8 000:138.242 JLINK_GetDLLVersion()
TF2E8 000:138.270 - 0.027ms returns 82600
TF2E8 000:138.276 JLINK_GetCompileDateTime()
TF2E8 000:138.280 - 0.004ms 
TF2E8 000:140.634 JLINK_GetFirmwareString(...)
TF2E8 000:140.683 - 0.048ms 
TF2E8 000:143.138 JLINK_GetHardwareVersion()
TF2E8 000:143.161 - 0.023ms returns 94000
TF2E8 000:145.691 JLINK_GetSN()
TF2E8 000:145.720 - 0.028ms returns 69400157
TF2E8 000:148.335 JLINK_GetOEMString(...)
TF2E8 000:154.246 JLINK_TIF_Select(JLINKARM_TIF_SWD)
TF2E8 000:156.054 - 1.808ms returns 0x00
TF2E8 000:156.069 JLINK_HasError()
TF2E8 000:156.082 JLINK_SetSpeed(1000)
TF2E8 000:156.386 - 0.304ms 
TF2E8 000:156.393 JLINK_GetId()
TF2E8 000:160.831   Found SW-DP with ID 0x1BA01477
TF2E8 000:169.986   DPIDR: 0x1BA01477
TF2E8 000:172.192   CoreSight SoC-400 or earlier
TF2E8 000:174.293   Scanning AP map to find all available APs
TF2E8 000:178.052   AP[1]: Stopped AP scan as end of AP map has been reached
TF2E8 000:180.118   AP[0]: AHB-AP (IDR: 0x14770011, ADDR: 0x00000000)
TF2E8 000:181.989   Iterating through AP map to find AHB-AP to use
TF2E8 000:186.405   AP[0]: Core found
TF2E8 000:188.469   AP[0]: AHB-AP ROM base: 0xE00FF000
TF2E8 000:191.810   CPUID register: 0x411FC231. Implementer code: 0x41 (ARM)
TF2E8 000:194.621   Found Cortex-M3 r1p1, Little endian.
TF2E8 000:195.928   -- Max. mem block: 0x00010C40
TF2E8 000:196.924   CPU_ReadMem(4 bytes @ 0xE000EDF0)
TF2E8 000:198.073   CPU_WriteMem(4 bytes @ 0xE000EDF0)
TF2E8 000:199.064   CPU_ReadMem(4 bytes @ 0xE0002000)
TF2E8 000:202.447   FPUnit: 6 code (BP) slots and 2 literal slots
TF2E8 000:202.472   CPU_ReadMem(4 bytes @ 0xE000EDFC)
TF2E8 000:203.458   CPU_WriteMem(4 bytes @ 0xE000EDFC)
TF2E8 000:204.512   CPU_ReadMem(4 bytes @ 0xE0001000)
TF2E8 000:205.417   CPU_WriteMem(4 bytes @ 0xE0001000)
TF2E8 000:206.353   CPU_ReadMem(4 bytes @ 0xE000ED88)
TF2E8 000:207.293   CPU_WriteMem(4 bytes @ 0xE000ED88)
TF2E8 000:208.263   CPU_ReadMem(4 bytes @ 0xE000ED88)
TF2E8 000:209.260   CPU_WriteMem(4 bytes @ 0xE000ED88)
TF2E8 000:212.874   CoreSight components:
TF2E8 000:214.936   ROMTbl[0] @ E00FF000
TF2E8 000:214.955   CPU_ReadMem(64 bytes @ 0xE00FF000)
TF2E8 000:216.958   CPU_ReadMem(32 bytes @ 0xE000EFE0)
TF2E8 000:220.690   [0][0]: E000E000 CID B105E00D PID 001BB000 SCS
TF2E8 000:220.716   CPU_ReadMem(32 bytes @ 0xE0001FE0)
TF2E8 000:224.401   [0][1]: E0001000 CID B105E00D PID 001BB002 DWT
TF2E8 000:224.422   CPU_ReadMem(32 bytes @ 0xE0002FE0)
TF2E8 000:228.418   [0][2]: E0002000 CID B105E00D PID 000BB003 FPB
TF2E8 000:228.455   CPU_ReadMem(32 bytes @ 0xE0000FE0)
TF2E8 000:232.240   [0][3]: E0000000 CID B105E00D PID 001BB001 ITM
TF2E8 000:232.266   CPU_ReadMem(32 bytes @ 0xE0040FE0)
TF2E8 000:236.276   [0][4]: E0040000 CID B105900D PID 001BB923 TPIU-Lite
TF2E8 000:236.297   CPU_ReadMem(32 bytes @ 0xE0041FE0)
TF2E8 000:240.720   [0][5]: E0041000 CID B105900D PID 101BB924 ETM-M3
TF2E8 000:241.568 - 85.173ms returns 0x1BA01477
TF2E8 000:241.595 JLINK_GetDLLVersion()
TF2E8 000:241.599 - 0.004ms returns 82600
TF2E8 000:241.605 JLINK_CORE_GetFound()
TF2E8 000:241.609 - 0.004ms returns 0x30000FF
TF2E8 000:241.615 JLINK_GetDebugInfo(0x100 = JLINKARM_ROM_TABLE_ADDR_INDEX)
TF2E8 000:241.619   Value=0xE00FF000
TF2E8 000:241.625 - 0.010ms returns 0
TF2E8 000:243.710 JLINK_GetDebugInfo(0x100 = JLINKARM_ROM_TABLE_ADDR_INDEX)
TF2E8 000:243.727   Value=0xE00FF000
TF2E8 000:243.733 - 0.022ms returns 0
TF2E8 000:243.739 JLINK_GetDebugInfo(0x101 = JLINKARM_DEBUG_INFO_ETM_ADDR_INDEX)
TF2E8 000:243.743   Value=0xE0041000
TF2E8 000:243.748 - 0.009ms returns 0
TF2E8 000:243.766 JLINK_ReadMemEx(0xE0041FD0, 0x20 Bytes, Flags = 0x02000004)
TF2E8 000:243.794   CPU_ReadMem(32 bytes @ 0xE0041FD0)
TF2E8 000:245.409   Data:  04 00 00 00 00 00 00 00 00 00 00 00 00 00 00 00 ...
TF2E8 000:245.417 - 1.651ms returns 32 (0x20)
TF2E8 000:245.423 JLINK_GetDebugInfo(0x102 = JLINKARM_DEBUG_INFO_MTB_ADDR_INDEX)
TF2E8 000:245.427   Value=0x00000000
TF2E8 000:245.432 - 0.009ms returns 0
TF2E8 000:245.436 JLINK_GetDebugInfo(0x103 = JLINKARM_DEBUG_INFO_TPIU_ADDR_INDEX)
TF2E8 000:245.440   Value=0xE0040000
TF2E8 000:245.445 - 0.009ms returns 0
TF2E8 000:245.450 JLINK_GetDebugInfo(0x104 = JLINKARM_DEBUG_INFO_ITM_ADDR_INDEX)
TF2E8 000:245.454   Value=0xE0000000
TF2E8 000:245.459 - 0.009ms returns 0
TF2E8 000:245.464 JLINK_GetDebugInfo(0x105 = JLINKARM_DEBUG_INFO_DWT_ADDR_INDEX)
TF2E8 000:245.467   Value=0xE0001000
TF2E8 000:245.472 - 0.008ms returns 0
TF2E8 000:245.477 JLINK_GetDebugInfo(0x106 = JLINKARM_DEBUG_INFO_FPB_ADDR_INDEX)
TF2E8 000:245.480   Value=0xE0002000
TF2E8 000:245.486 - 0.009ms returns 0
TF2E8 000:245.490 JLINK_GetDebugInfo(0x107 = JLINKARM_DEBUG_INFO_NVIC_ADDR_INDEX)
TF2E8 000:245.494   Value=0xE000E000
TF2E8 000:245.499 - 0.008ms returns 0
TF2E8 000:245.503 JLINK_GetDebugInfo(0x10C = JLINKARM_DEBUG_INFO_DBG_ADDR_INDEX)
TF2E8 000:245.507   Value=0xE000EDF0
TF2E8 000:245.512 - 0.008ms returns 0
TF2E8 000:245.516 JLINK_GetDebugInfo(0x01 = Unknown)
TF2E8 000:245.520   Value=0x00000000
TF2E8 000:245.525 - 0.008ms returns 0
TF2E8 000:245.530 JLINK_ReadMemU32(0xE000ED00, 0x1 Items)
TF2E8 000:245.536   CPU_ReadMem(4 bytes @ 0xE000ED00)
TF2E8 000:246.504   Data:  31 C2 1F 41
TF2E8 000:246.511   Debug reg: CPUID
TF2E8 000:246.516 - 0.986ms returns 1 (0x1)
TF2E8 000:246.522 JLINK_GetDebugInfo(0x10F = JLINKARM_DEBUG_INFO_HAS_CORTEX_M_SECURITY_EXT_INDEX)
TF2E8 000:246.526   Value=0x00000000
TF2E8 000:246.537 - 0.015ms returns 0
TF2E8 000:246.542 JLINK_HasError()
TF2E8 000:246.547 JLINK_SetResetType(JLINKARM_CM3_RESET_TYPE_NORMAL)
TF2E8 000:246.552 - 0.004ms returns JLINKARM_CM3_RESET_TYPE_NORMAL
TF2E8 000:246.556 JLINK_Reset()
TF2E8 000:246.570   JLINK_GetResetTypeDesc
TF2E8 000:246.574   - 0.004ms 
TF2E8 000:248.715   Reset type: NORMAL (https://wiki.segger.com/J-Link_Reset_Strategies)
TF2E8 000:248.745   CPU is running
TF2E8 000:248.753   CPU_WriteMem(4 bytes @ 0xE000EDF0)
TF2E8 000:249.796   CPU is running
TF2E8 000:249.814   CPU_WriteMem(4 bytes @ 0xE000EDFC)
TF2E8 000:253.224   Reset: Halt core after reset via DEMCR.VC_CORERESET.
TF2E8 000:256.848   Reset: Reset device via AIRCR.SYSRESETREQ.
TF2E8 000:256.876   CPU is running
TF2E8 000:256.886   CPU_WriteMem(4 bytes @ 0xE000ED0C)
TF2E8 000:312.624   CPU_ReadMem(4 bytes @ 0xE000EDF0)
TF2E8 000:313.551   CPU_ReadMem(4 bytes @ 0xE000EDF0)
TF2E8 000:323.724   CPU_WriteMem(4 bytes @ 0xE000EDFC)
TF2E8 000:330.592   CPU_ReadMem(4 bytes @ 0xE000EDF0)
TF2E8 000:340.776   CPU_WriteMem(4 bytes @ 0xE0002000)
TF2E8 000:341.610   CPU_ReadMem(4 bytes @ 0xE000EDFC)
TF2E8 000:342.688   CPU_ReadMem(4 bytes @ 0xE0001000)
TF2E8 000:343.610 - 97.050ms 
TF2E8 000:343.900 JLINK_Halt()
TF2E8 000:343.927 - 0.026ms returns 0x00
TF2E8 000:343.956 JLINK_ReadMemU32(0xE000EDF0, 0x1 Items)
TF2E8 000:344.001   CPU_ReadMem(4 bytes @ 0xE000EDF0)
TF2E8 000:345.209   Data:  03 00 03 00
TF2E8 000:345.239   Debug reg: DHCSR
TF2E8 000:345.267 - 1.311ms returns 1 (0x1)
TF2E8 000:345.312 JLINK_WriteU32(0xE000EDF0, 0xA05F0003)
TF2E8 000:345.330   Debug reg: DHCSR
TF2E8 000:346.697   CPU_WriteMem(4 bytes @ 0xE000EDF0)
TF2E8 000:347.796 - 2.503ms returns 0 (0x00000000)
TF2E8 000:347.820 JLINK_WriteU32(0xE000EDFC, 0x01000000)
TF2E8 000:347.835   Debug reg: DEMCR
TF2E8 000:347.878   CPU_WriteMem(4 bytes @ 0xE000EDFC)
TF2E8 000:348.880 - 1.060ms returns 0 (0x00000000)
TF2E8 000:373.551 JLINK_GetHWStatus(...)
TF2E8 000:374.173 - 0.615ms returns 0
TF2E8 000:380.597 JLINK_GetNumBPUnits(Type = 0xFFFFFF00)
TF2E8 000:380.627 - 0.030ms returns 0x06
TF2E8 000:380.633 JLINK_GetNumBPUnits(Type = 0xF0)
TF2E8 000:380.637 - 0.004ms returns 0x2000
TF2E8 000:380.642 JLINK_GetNumWPUnits()
TF2E8 000:380.645 - 0.003ms returns 4
TF2E8 000:387.924 JLINK_GetSpeed()
TF2E8 000:387.954 - 0.030ms returns 1000
TF2E8 000:392.136 JLINK_ReadMemU32(0xE000E004, 0x1 Items)
TF2E8 000:392.174   CPU_ReadMem(4 bytes @ 0xE000E004)
TF2E8 000:393.187   Data:  01 00 00 00
TF2E8 000:393.202 - 1.065ms returns 1 (0x1)
TF2E8 000:393.209 JLINK_ReadMemU32(0xE000E004, 0x1 Items)
TF2E8 000:393.216   CPU_ReadMem(4 bytes @ 0xE000E004)
TF2E8 000:394.240   Data:  01 00 00 00
TF2E8 000:394.248 - 1.039ms returns 1 (0x1)
TF2E8 000:394.254 JLINK_WriteMemEx(0xE0001000, 0x0000001C Bytes, Flags = 0x02000004)
TF2E8 000:394.258   Data:  01 00 00 00 00 00 00 00 00 00 00 00 00 00 00 00 ...
TF2E8 000:394.270   CPU_WriteMem(28 bytes @ 0xE0001000)
TF2E8 000:395.727 - 1.472ms returns 0x1C
TF2E8 000:395.787 JLINK_Halt()
TF2E8 000:395.791 - 0.004ms returns 0x00
TF2E8 000:395.829 JLINK_IsHalted()
TF2E8 000:395.835 - 0.005ms returns TRUE
TF2E8 000:398.799 JLINK_WriteMem(0x20000000, 0x17C Bytes, ...)
TF2E8 000:398.811   Data:  00 BE 0A E0 0D 78 2D 06 68 40 08 24 40 00 00 D3 ...
TF2E8 000:399.181   CPU_WriteMem(380 bytes @ 0x20000000)
TF2E8 000:406.792 - 7.993ms returns 0x17C
TF2E8 000:406.868 JLINK_HasError()
TF2E8 000:406.876 JLINK_WriteReg(R0, 0x08000000)
TF2E8 000:406.885 - 0.009ms returns 0
TF2E8 000:406.890 JLINK_WriteReg(R1, 0x00B71B00)
TF2E8 000:406.895 - 0.004ms returns 0
TF2E8 000:406.899 JLINK_WriteReg(R2, 0x00000001)
TF2E8 000:406.904 - 0.004ms returns 0
TF2E8 000:406.909 JLINK_WriteReg(R3, 0x00000000)
TF2E8 000:406.913 - 0.004ms returns 0
TF2E8 000:406.919 JLINK_WriteReg(R4, 0x00000000)
TF2E8 000:406.923 - 0.004ms returns 0
TF2E8 000:406.928 JLINK_WriteReg(R5, 0x00000000)
TF2E8 000:406.932 - 0.004ms returns 0
TF2E8 000:406.936 JLINK_WriteReg(R6, 0x00000000)
TF2E8 000:406.947 - 0.010ms returns 0
TF2E8 000:406.955 JLINK_WriteReg(R7, 0x00000000)
TF2E8 000:406.959 - 0.004ms returns 0
TF2E8 000:406.982 JLINK_WriteReg(R8, 0x00000000)
TF2E8 000:406.987 - 0.022ms returns 0
TF2E8 000:406.991 JLINK_WriteReg(R9, 0x20000174)
TF2E8 000:406.996 - 0.004ms returns 0
TF2E8 000:407.001 JLINK_WriteReg(R10, 0x00000000)
TF2E8 000:407.005 - 0.004ms returns 0
TF2E8 000:407.010 JLINK_WriteReg(R11, 0x00000000)
TF2E8 000:407.014 - 0.004ms returns 0
TF2E8 000:407.019 JLINK_WriteReg(R12, 0x00000000)
TF2E8 000:407.023 - 0.004ms returns 0
TF2E8 000:407.028 JLINK_WriteReg(R13 (SP), 0x20001000)
TF2E8 000:407.033 - 0.005ms returns 0
TF2E8 000:407.038 JLINK_WriteReg(R14, 0x20000001)
TF2E8 000:407.042 - 0.004ms returns 0
TF2E8 000:407.052 JLINK_WriteReg(R15 (PC), 0x20000038)
TF2E8 000:407.056 - 0.009ms returns 0
TF2E8 000:407.061 JLINK_WriteReg(XPSR, 0x01000000)
TF2E8 000:407.066 - 0.004ms returns 0
TF2E8 000:407.070 JLINK_WriteReg(MSP, 0x20001000)
TF2E8 000:407.074 - 0.004ms returns 0
TF2E8 000:407.079 JLINK_WriteReg(PSP, 0x20001000)
TF2E8 000:407.083 - 0.004ms returns 0
TF2E8 000:407.088 JLINK_WriteReg(CFBP, 0x00000000)
TF2E8 000:407.092 - 0.004ms returns 0
TF2E8 000:407.098 JLINK_SetBPEx(Addr = 0x20000000, Type = 0xFFFFFFF2)
TF2E8 000:407.108   CPU_ReadMem(4 bytes @ 0x20000000)
TF2E8 000:408.084   CPU_WriteMem(4 bytes @ 0x20000000)
TF2E8 000:409.091   CPU_ReadMem(4 bytes @ 0x20000000)
TF2E8 000:410.077   CPU_WriteMem(4 bytes @ 0x20000000)
TF2E8 000:411.088   CPU_ReadMem(2 bytes @ 0x20000000)
TF2E8 000:412.109 - 5.011ms returns 0x00000001
TF2E8 000:412.118 JLINK_Go()
TF2E8 000:412.126   CPU_WriteMem(2 bytes @ 0x20000000)
TF2E8 000:413.026   CPU_ReadMem(4 bytes @ 0xE0001000)
TF2E8 000:414.136   CPU_WriteMem(4 bytes @ 0xE0002008)
TF2E8 000:414.159   CPU_WriteMem(4 bytes @ 0xE000200C)
TF2E8 000:414.167   CPU_WriteMem(4 bytes @ 0xE0002010)
TF2E8 000:414.175   CPU_WriteMem(4 bytes @ 0xE0002014)
TF2E8 000:414.183   CPU_WriteMem(4 bytes @ 0xE0002018)
TF2E8 000:414.191   CPU_WriteMem(4 bytes @ 0xE000201C)
TF2E8 000:417.794   CPU_WriteMem(4 bytes @ 0xE0001004)
TF2E8 000:432.355   Memory map 'after startup completion point' is active
TF2E8 000:432.401 - 20.282ms 
TF2E8 000:432.496 JLINK_IsHalted()
TF2E8 000:441.663   CPU_ReadMem(2 bytes @ 0x20000000)
TF2E8 000:442.731 - 10.234ms returns TRUE
TF2E8 000:442.776 JLINK_ReadReg(R15 (PC))
TF2E8 000:442.790 - 0.015ms returns 0x20000000
TF2E8 000:442.801 JLINK_ClrBPEx(BPHandle = 0x00000001)
TF2E8 000:442.812 - 0.010ms returns 0x00
TF2E8 000:442.822 JLINK_ReadReg(R0)
TF2E8 000:442.831 - 0.008ms returns 0x00000000
TF2E8 000:443.416 JLINK_HasError()
TF2E8 000:443.440 JLINK_WriteReg(R0, 0x08000000)
TF2E8 000:443.452 - 0.012ms returns 0
TF2E8 000:443.462 JLINK_WriteReg(R1, 0x00B71B00)
TF2E8 000:443.470 - 0.008ms returns 0
TF2E8 000:443.480 JLINK_WriteReg(R2, 0x00000001)
TF2E8 000:443.488 - 0.008ms returns 0
TF2E8 000:443.498 JLINK_WriteReg(R3, 0x00000000)
TF2E8 000:443.506 - 0.008ms returns 0
TF2E8 000:443.515 JLINK_WriteReg(R4, 0x00000000)
TF2E8 000:443.523 - 0.008ms returns 0
TF2E8 000:443.532 JLINK_WriteReg(R5, 0x00000000)
TF2E8 000:443.540 - 0.008ms returns 0
TF2E8 000:443.550 JLINK_WriteReg(R6, 0x00000000)
TF2E8 000:443.558 - 0.008ms returns 0
TF2E8 000:443.567 JLINK_WriteReg(R7, 0x00000000)
TF2E8 000:443.575 - 0.008ms returns 0
TF2E8 000:443.584 JLINK_WriteReg(R8, 0x00000000)
TF2E8 000:443.592 - 0.008ms returns 0
TF2E8 000:443.602 JLINK_WriteReg(R9, 0x20000174)
TF2E8 000:443.610 - 0.008ms returns 0
TF2E8 000:443.620 JLINK_WriteReg(R10, 0x00000000)
TF2E8 000:443.628 - 0.008ms returns 0
TF2E8 000:443.637 JLINK_WriteReg(R11, 0x00000000)
TF2E8 000:443.645 - 0.008ms returns 0
TF2E8 000:443.656 JLINK_WriteReg(R12, 0x00000000)
TF2E8 000:443.664 - 0.008ms returns 0
TF2E8 000:443.673 JLINK_WriteReg(R13 (SP), 0x20001000)
TF2E8 000:443.683 - 0.009ms returns 0
TF2E8 000:443.692 JLINK_WriteReg(R14, 0x20000001)
TF2E8 000:443.700 - 0.008ms returns 0
TF2E8 000:443.710 JLINK_WriteReg(R15 (PC), 0x20000086)
TF2E8 000:443.814 - 0.104ms returns 0
TF2E8 000:443.830 JLINK_WriteReg(XPSR, 0x01000000)
TF2E8 000:443.838 - 0.008ms returns 0
TF2E8 000:443.848 JLINK_WriteReg(MSP, 0x20001000)
TF2E8 000:443.856 - 0.008ms returns 0
TF2E8 000:443.865 JLINK_WriteReg(PSP, 0x20001000)
TF2E8 000:443.873 - 0.008ms returns 0
TF2E8 000:443.882 JLINK_WriteReg(CFBP, 0x00000000)
TF2E8 000:443.890 - 0.008ms returns 0
TF2E8 000:443.901 JLINK_SetBPEx(Addr = 0x20000000, Type = 0xFFFFFFF2)
TF2E8 000:443.911 - 0.010ms returns 0x00000002
TF2E8 000:443.921 JLINK_Go()
TF2E8 000:443.944   CPU_ReadMem(4 bytes @ 0xE0001000)
TF2E8 000:453.142 - 9.220ms 
TF2E8 000:453.179 JLINK_IsHalted()
TF2E8 000:454.239 - 1.059ms returns FALSE
TF2E8 000:454.265 JLINK_HasError()
TF2E8 000:473.934 JLINK_IsHalted()
TF2E8 000:475.232 - 1.297ms returns FALSE
TF2E8 000:475.246 JLINK_HasError()
TF2E8 000:476.894 JLINK_IsHalted()
TF2E8 000:485.928   CPU_ReadMem(2 bytes @ 0x20000000)
TF2E8 000:486.987 - 10.092ms returns TRUE
TF2E8 000:487.019 JLINK_ReadReg(R15 (PC))
TF2E8 000:487.030 - 0.011ms returns 0x20000000
TF2E8 000:487.039 JLINK_ClrBPEx(BPHandle = 0x00000002)
TF2E8 000:487.046 - 0.007ms returns 0x00
TF2E8 000:487.122 JLINK_ReadReg(R0)
TF2E8 000:487.130 - 0.008ms returns 0x00000000
TF2E8 000:544.023 JLINK_HasError()
TF2E8 000:544.095 JLINK_WriteReg(R0, 0x00000001)
TF2E8 000:544.136 - 0.040ms returns 0
TF2E8 000:544.153 JLINK_WriteReg(R1, 0x00B71B00)
TF2E8 000:544.166 - 0.013ms returns 0
TF2E8 000:544.180 JLINK_WriteReg(R2, 0x00000001)
TF2E8 000:544.191 - 0.012ms returns 0
TF2E8 000:544.205 JLINK_WriteReg(R3, 0x00000000)
TF2E8 000:544.216 - 0.011ms returns 0
TF2E8 000:544.230 JLINK_WriteReg(R4, 0x00000000)
TF2E8 000:544.241 - 0.011ms returns 0
TF2E8 000:544.254 JLINK_WriteReg(R5, 0x00000000)
TF2E8 000:544.266 - 0.012ms returns 0
TF2E8 000:544.279 JLINK_WriteReg(R6, 0x00000000)
TF2E8 000:544.291 - 0.012ms returns 0
TF2E8 000:544.305 JLINK_WriteReg(R7, 0x00000000)
TF2E8 000:544.316 - 0.011ms returns 0
TF2E8 000:544.329 JLINK_WriteReg(R8, 0x00000000)
TF2E8 000:544.341 - 0.011ms returns 0
TF2E8 000:544.354 JLINK_WriteReg(R9, 0x20000174)
TF2E8 000:544.366 - 0.011ms returns 0
TF2E8 000:544.379 JLINK_WriteReg(R10, 0x00000000)
TF2E8 000:544.391 - 0.012ms returns 0
TF2E8 000:544.404 JLINK_WriteReg(R11, 0x00000000)
TF2E8 000:544.416 - 0.011ms returns 0
TF2E8 000:544.429 JLINK_WriteReg(R12, 0x00000000)
TF2E8 000:544.441 - 0.011ms returns 0
TF2E8 000:544.455 JLINK_WriteReg(R13 (SP), 0x20001000)
TF2E8 000:544.469 - 0.014ms returns 0
TF2E8 000:544.482 JLINK_WriteReg(R14, 0x20000001)
TF2E8 000:544.494 - 0.011ms returns 0
TF2E8 000:544.508 JLINK_WriteReg(R15 (PC), 0x20000074)
TF2E8 000:544.520 - 0.012ms returns 0
TF2E8 000:544.533 JLINK_WriteReg(XPSR, 0x01000000)
TF2E8 000:544.545 - 0.011ms returns 0
TF2E8 000:544.558 JLINK_WriteReg(MSP, 0x20001000)
TF2E8 000:544.570 - 0.011ms returns 0
TF2E8 000:544.583 JLINK_WriteReg(PSP, 0x20001000)
TF2E8 000:544.595 - 0.011ms returns 0
TF2E8 000:544.608 JLINK_WriteReg(CFBP, 0x00000000)
TF2E8 000:544.619 - 0.011ms returns 0
TF2E8 000:544.634 JLINK_SetBPEx(Addr = 0x20000000, Type = 0xFFFFFFF2)
TF2E8 000:544.650 - 0.016ms returns 0x00000003
TF2E8 000:544.664 JLINK_Go()
TF2E8 000:544.699   CPU_ReadMem(4 bytes @ 0xE0001000)
TF2E8 000:554.212 - 9.546ms 
TF2E8 000:554.277 JLINK_IsHalted()
TF2E8 000:563.602   CPU_ReadMem(2 bytes @ 0x20000000)
TF2E8 000:564.777 - 10.498ms returns TRUE
TF2E8 000:565.012 JLINK_ReadReg(R15 (PC))
TF2E8 000:565.046 - 0.034ms returns 0x20000000
TF2E8 000:565.071 JLINK_ClrBPEx(BPHandle = 0x00000003)
TF2E8 000:565.092 - 0.020ms returns 0x00
TF2E8 000:565.117 JLINK_ReadReg(R0)
TF2E8 000:565.137 - 0.020ms returns 0x00000000
TF2E8 000:580.920 JLINK_WriteMem(0x20000000, 0x17C Bytes, ...)
TF2E8 000:580.957   Data:  00 BE 0A E0 0D 78 2D 06 68 40 08 24 40 00 00 D3 ...
TF2E8 000:581.003   CPU_WriteMem(380 bytes @ 0x20000000)
TF2E8 000:588.844 - 7.923ms returns 0x17C
TF2E8 000:588.955 JLINK_HasError()
TF2E8 000:588.970 JLINK_WriteReg(R0, 0x08000000)
TF2E8 000:588.997 - 0.027ms returns 0
TF2E8 000:589.014 JLINK_WriteReg(R1, 0x00B71B00)
TF2E8 000:589.023 - 0.009ms returns 0
TF2E8 000:589.033 JLINK_WriteReg(R2, 0x00000002)
TF2E8 000:589.042 - 0.008ms returns 0
TF2E8 000:589.051 JLINK_WriteReg(R3, 0x00000000)
TF2E8 000:589.060 - 0.008ms returns 0
TF2E8 000:589.070 JLINK_WriteReg(R4, 0x00000000)
TF2E8 000:589.078 - 0.008ms returns 0
TF2E8 000:589.088 JLINK_WriteReg(R5, 0x00000000)
TF2E8 000:589.097 - 0.008ms returns 0
TF2E8 000:589.106 JLINK_WriteReg(R6, 0x00000000)
TF2E8 000:589.115 - 0.008ms returns 0
TF2E8 000:589.124 JLINK_WriteReg(R7, 0x00000000)
TF2E8 000:589.133 - 0.008ms returns 0
TF2E8 000:589.143 JLINK_WriteReg(R8, 0x00000000)
TF2E8 000:589.151 - 0.008ms returns 0
TF2E8 000:589.161 JLINK_WriteReg(R9, 0x20000174)
TF2E8 000:589.169 - 0.008ms returns 0
TF2E8 000:589.179 JLINK_WriteReg(R10, 0x00000000)
TF2E8 000:589.188 - 0.008ms returns 0
TF2E8 000:589.198 JLINK_WriteReg(R11, 0x00000000)
TF2E8 000:589.207 - 0.009ms returns 0
TF2E8 000:589.217 JLINK_WriteReg(R12, 0x00000000)
TF2E8 000:589.225 - 0.008ms returns 0
TF2E8 000:589.236 JLINK_WriteReg(R13 (SP), 0x20001000)
TF2E8 000:589.245 - 0.010ms returns 0
TF2E8 000:589.255 JLINK_WriteReg(R14, 0x20000001)
TF2E8 000:589.264 - 0.008ms returns 0
TF2E8 000:589.357 JLINK_WriteReg(R15 (PC), 0x20000038)
TF2E8 000:589.368 - 0.011ms returns 0
TF2E8 000:589.378 JLINK_WriteReg(XPSR, 0x01000000)
TF2E8 000:589.387 - 0.008ms returns 0
TF2E8 000:589.397 JLINK_WriteReg(MSP, 0x20001000)
TF2E8 000:589.405 - 0.008ms returns 0
TF2E8 000:589.415 JLINK_WriteReg(PSP, 0x20001000)
TF2E8 000:589.423 - 0.008ms returns 0
TF2E8 000:589.433 JLINK_WriteReg(CFBP, 0x00000000)
TF2E8 000:589.442 - 0.008ms returns 0
TF2E8 000:589.453 JLINK_SetBPEx(Addr = 0x20000000, Type = 0xFFFFFFF2)
TF2E8 000:589.472   CPU_ReadMem(4 bytes @ 0x20000000)
TF2E8 000:590.490   CPU_WriteMem(4 bytes @ 0x20000000)
TF2E8 000:591.530   CPU_ReadMem(4 bytes @ 0x20000000)
TF2E8 000:592.654   CPU_WriteMem(4 bytes @ 0x20000000)
TF2E8 000:593.685   CPU_ReadMem(2 bytes @ 0x20000000)
TF2E8 000:594.713 - 5.258ms returns 0x00000004
TF2E8 000:594.734 JLINK_Go()
TF2E8 000:594.752   CPU_WriteMem(2 bytes @ 0x20000000)
TF2E8 000:595.734   CPU_ReadMem(4 bytes @ 0xE0001000)
TF2E8 000:605.008 - 10.272ms 
TF2E8 000:605.062 JLINK_IsHalted()
TF2E8 000:614.245   CPU_ReadMem(2 bytes @ 0x20000000)
TF2E8 000:615.426 - 10.362ms returns TRUE
TF2E8 000:615.879 JLINK_ReadReg(R15 (PC))
TF2E8 000:615.949 - 0.069ms returns 0x20000000
TF2E8 000:615.973 JLINK_ClrBPEx(BPHandle = 0x00000004)
TF2E8 000:615.992 - 0.018ms returns 0x00
TF2E8 000:616.011 JLINK_ReadReg(R0)
TF2E8 000:616.027 - 0.016ms returns 0x00000000
TF2E8 000:617.177 JLINK_WriteMem(0x2000017C, 0x284 Bytes, ...)
TF2E8 000:617.226   Data:  08 0A 00 20 B5 D6 00 08 95 13 00 08 97 13 00 08 ...
TF2E8 000:617.280   CPU_WriteMem(644 bytes @ 0x2000017C)
TF2E8 000:629.563 - 12.383ms returns 0x284
TF2E8 000:629.648 JLINK_WriteMem(0x20000400, 0x17C Bytes, ...)
TF2E8 000:629.669   Data:  0D 46 16 46 1F 46 2B 46 32 46 29 46 20 46 FF F7 ...
TF2E8 000:629.721   CPU_WriteMem(380 bytes @ 0x20000400)
TF2E8 000:637.605 - 7.956ms returns 0x17C
TF2E8 000:637.660 JLINK_HasError()
TF2E8 000:637.677 JLINK_WriteReg(R0, 0x08000000)
TF2E8 000:637.697 - 0.020ms returns 0
TF2E8 000:637.709 JLINK_WriteReg(R1, 0x00000400)
TF2E8 000:637.720 - 0.011ms returns 0
TF2E8 000:637.732 JLINK_WriteReg(R2, 0x2000017C)
TF2E8 000:637.742 - 0.010ms returns 0
TF2E8 000:637.753 JLINK_WriteReg(R3, 0x00000000)
TF2E8 000:637.764 - 0.010ms returns 0
TF2E8 000:637.775 JLINK_WriteReg(R4, 0x00000000)
TF2E8 000:637.785 - 0.010ms returns 0
TF2E8 000:637.797 JLINK_WriteReg(R5, 0x00000000)
TF2E8 000:637.807 - 0.010ms returns 0
TF2E8 000:637.818 JLINK_WriteReg(R6, 0x00000000)
TF2E8 000:637.829 - 0.010ms returns 0
TF2E8 000:637.840 JLINK_WriteReg(R7, 0x00000000)
TF2E8 000:637.850 - 0.010ms returns 0
TF2E8 000:637.862 JLINK_WriteReg(R8, 0x00000000)
TF2E8 000:637.872 - 0.010ms returns 0
TF2E8 000:637.884 JLINK_WriteReg(R9, 0x20000174)
TF2E8 000:637.904 - 0.020ms returns 0
TF2E8 000:637.922 JLINK_WriteReg(R10, 0x00000000)
TF2E8 000:637.932 - 0.010ms returns 0
TF2E8 000:637.944 JLINK_WriteReg(R11, 0x00000000)
TF2E8 000:637.955 - 0.010ms returns 0
TF2E8 000:637.967 JLINK_WriteReg(R12, 0x00000000)
TF2E8 000:637.977 - 0.010ms returns 0
TF2E8 000:637.989 JLINK_WriteReg(R13 (SP), 0x20001000)
TF2E8 000:638.001 - 0.011ms returns 0
TF2E8 000:638.013 JLINK_WriteReg(R14, 0x20000001)
TF2E8 000:638.023 - 0.010ms returns 0
TF2E8 000:638.035 JLINK_WriteReg(R15 (PC), 0x20000102)
TF2E8 000:638.045 - 0.010ms returns 0
TF2E8 000:638.057 JLINK_WriteReg(XPSR, 0x01000000)
TF2E8 000:638.067 - 0.010ms returns 0
TF2E8 000:638.079 JLINK_WriteReg(MSP, 0x20001000)
TF2E8 000:638.089 - 0.010ms returns 0
TF2E8 000:638.101 JLINK_WriteReg(PSP, 0x20001000)
TF2E8 000:638.111 - 0.010ms returns 0
TF2E8 000:638.123 JLINK_WriteReg(CFBP, 0x00000000)
TF2E8 000:638.133 - 0.010ms returns 0
TF2E8 000:638.146 JLINK_SetBPEx(Addr = 0x20000000, Type = 0xFFFFFFF2)
TF2E8 000:638.159 - 0.013ms returns 0x00000005
TF2E8 000:638.171 JLINK_Go()
TF2E8 000:638.195   CPU_ReadMem(4 bytes @ 0xE0001000)
TF2E8 000:647.683 - 9.511ms 
TF2E8 000:647.820 JLINK_IsHalted()
TF2E8 000:648.871 - 1.050ms returns FALSE
TF2E8 000:648.894 JLINK_HasError()
TF2E8 000:658.453 JLINK_IsHalted()
TF2E8 000:659.749 - 1.295ms returns FALSE
TF2E8 000:659.773 JLINK_HasError()
TF2E8 000:661.469 JLINK_IsHalted()
TF2E8 000:662.595 - 1.125ms returns FALSE
TF2E8 000:662.616 JLINK_HasError()
TF2E8 000:664.490 JLINK_IsHalted()
TF2E8 000:665.659 - 1.168ms returns FALSE
TF2E8 000:665.677 JLINK_HasError()
TF2E8 000:667.529 JLINK_IsHalted()
TF2E8 000:668.722 - 1.193ms returns FALSE
TF2E8 000:668.749 JLINK_HasError()
TF2E8 000:670.522 JLINK_IsHalted()
TF2E8 000:671.722 - 1.198ms returns FALSE
TF2E8 000:671.970 JLINK_HasError()
TF2E8 000:673.528 JLINK_IsHalted()
TF2E8 000:674.819 - 1.290ms returns FALSE
TF2E8 000:674.852 JLINK_HasError()
TF2E8 000:681.073 JLINK_IsHalted()
TF2E8 000:690.104   CPU_ReadMem(2 bytes @ 0x20000000)
TF2E8 000:691.345 - 10.269ms returns TRUE
TF2E8 000:691.440 JLINK_ReadReg(R15 (PC))
TF2E8 000:691.469 - 0.029ms returns 0x20000000
TF2E8 000:691.491 JLINK_ClrBPEx(BPHandle = 0x00000005)
TF2E8 000:691.511 - 0.020ms returns 0x00
TF2E8 000:691.533 JLINK_ReadReg(R0)
TF2E8 000:691.552 - 0.019ms returns 0x00000000
TF2E8 000:693.456 JLINK_WriteMem(0x2000017C, 0x284 Bytes, ...)
TF2E8 000:693.792   Data:  0D 46 16 46 1F 46 DD E9 08 89 3B 46 32 46 29 46 ...
TF2E8 000:693.848   CPU_WriteMem(644 bytes @ 0x2000017C)
TF2E8 000:706.151 - 12.695ms returns 0x284
TF2E8 000:706.234 JLINK_WriteMem(0x20000400, 0x17C Bytes, ...)
TF2E8 000:706.250   Data:  01 94 0C F0 47 F9 12 98 50 BB 00 25 25 E0 0C 2C ...
TF2E8 000:706.291   CPU_WriteMem(380 bytes @ 0x20000400)
TF2E8 000:714.145 - 7.909ms returns 0x17C
TF2E8 000:714.248 JLINK_HasError()
TF2E8 000:714.485 JLINK_WriteReg(R0, 0x08000400)
TF2E8 000:714.515 - 0.031ms returns 0
TF2E8 000:714.533 JLINK_WriteReg(R1, 0x00000400)
TF2E8 000:714.550 - 0.017ms returns 0
TF2E8 000:714.566 JLINK_WriteReg(R2, 0x2000017C)
TF2E8 000:714.581 - 0.014ms returns 0
TF2E8 000:714.597 JLINK_WriteReg(R3, 0x00000000)
TF2E8 000:714.611 - 0.014ms returns 0
TF2E8 000:714.627 JLINK_WriteReg(R4, 0x00000000)
TF2E8 000:714.642 - 0.014ms returns 0
TF2E8 000:714.659 JLINK_WriteReg(R5, 0x00000000)
TF2E8 000:714.673 - 0.014ms returns 0
TF2E8 000:714.689 JLINK_WriteReg(R6, 0x00000000)
TF2E8 000:714.703 - 0.014ms returns 0
TF2E8 000:714.719 JLINK_WriteReg(R7, 0x00000000)
TF2E8 000:714.733 - 0.014ms returns 0
TF2E8 000:714.749 JLINK_WriteReg(R8, 0x00000000)
TF2E8 000:714.763 - 0.014ms returns 0
TF2E8 000:714.778 JLINK_WriteReg(R9, 0x20000174)
TF2E8 000:714.793 - 0.014ms returns 0
TF2E8 000:714.809 JLINK_WriteReg(R10, 0x00000000)
TF2E8 000:714.824 - 0.014ms returns 0
TF2E8 000:714.840 JLINK_WriteReg(R11, 0x00000000)
TF2E8 000:714.854 - 0.014ms returns 0
TF2E8 000:714.869 JLINK_WriteReg(R12, 0x00000000)
TF2E8 000:714.883 - 0.014ms returns 0
TF2E8 000:714.913 JLINK_WriteReg(R13 (SP), 0x20001000)
TF2E8 000:714.936 - 0.024ms returns 0
TF2E8 000:714.954 JLINK_WriteReg(R14, 0x20000001)
TF2E8 000:714.969 - 0.015ms returns 0
TF2E8 000:715.018 JLINK_WriteReg(R15 (PC), 0x20000102)
TF2E8 000:715.033 - 0.016ms returns 0
TF2E8 000:715.050 JLINK_WriteReg(XPSR, 0x01000000)
TF2E8 000:715.064 - 0.015ms returns 0
TF2E8 000:715.080 JLINK_WriteReg(MSP, 0x20001000)
TF2E8 000:715.095 - 0.014ms returns 0
TF2E8 000:715.111 JLINK_WriteReg(PSP, 0x20001000)
TF2E8 000:715.125 - 0.014ms returns 0
TF2E8 000:715.241 JLINK_WriteReg(CFBP, 0x00000000)
TF2E8 000:715.280 - 0.039ms returns 0
TF2E8 000:715.299 JLINK_SetBPEx(Addr = 0x20000000, Type = 0xFFFFFFF2)
TF2E8 000:715.319 - 0.019ms returns 0x00000006
TF2E8 000:715.335 JLINK_Go()
TF2E8 000:715.369   CPU_ReadMem(4 bytes @ 0xE0001000)
TF2E8 000:725.087 - 9.750ms 
TF2E8 000:725.121 JLINK_IsHalted()
TF2E8 000:726.229 - 1.105ms returns FALSE
TF2E8 000:726.291 JLINK_HasError()
TF2E8 000:728.004 JLINK_IsHalted()
TF2E8 000:729.017 - 1.013ms returns FALSE
TF2E8 000:729.049 JLINK_HasError()
TF2E8 000:731.041 JLINK_IsHalted()
TF2E8 000:732.138 - 1.096ms returns FALSE
TF2E8 000:732.167 JLINK_HasError()
TF2E8 000:734.037 JLINK_IsHalted()
TF2E8 000:735.196 - 1.156ms returns FALSE
TF2E8 000:735.272 JLINK_HasError()
TF2E8 000:737.074 JLINK_IsHalted()
TF2E8 000:738.266 - 1.190ms returns FALSE
TF2E8 000:738.316 JLINK_HasError()
TF2E8 000:740.053 JLINK_IsHalted()
TF2E8 000:741.044 - 0.990ms returns FALSE
TF2E8 000:741.069 JLINK_HasError()
TF2E8 000:743.038 JLINK_IsHalted()
TF2E8 000:744.247 - 1.207ms returns FALSE
TF2E8 000:744.292 JLINK_HasError()
TF2E8 000:746.091 JLINK_IsHalted()
TF2E8 000:747.231 - 1.140ms returns FALSE
TF2E8 000:747.256 JLINK_HasError()
TF2E8 000:749.075 JLINK_IsHalted()
TF2E8 000:750.344 - 1.268ms returns FALSE
TF2E8 000:750.366 JLINK_HasError()
TF2E8 000:754.085 JLINK_IsHalted()
TF2E8 000:755.377 - 1.290ms returns FALSE
TF2E8 000:755.409 JLINK_HasError()
TF2E8 000:757.057 JLINK_IsHalted()
TF2E8 000:766.363   CPU_ReadMem(2 bytes @ 0x20000000)
TF2E8 000:767.588 - 10.530ms returns TRUE
TF2E8 000:767.801 JLINK_ReadReg(R15 (PC))
TF2E8 000:767.836 - 0.034ms returns 0x20000000
TF2E8 000:767.859 JLINK_ClrBPEx(BPHandle = 0x00000006)
TF2E8 000:767.879 - 0.020ms returns 0x00
TF2E8 000:767.900 JLINK_ReadReg(R0)
TF2E8 000:767.917 - 0.017ms returns 0x00000000
TF2E8 000:769.682 JLINK_WriteMem(0x2000017C, 0x284 Bytes, ...)
TF2E8 000:769.738   Data:  B0 FB F1 F2 01 FB 12 08 BA F1 00 0F 1B D1 70 1E ...
TF2E8 000:769.794   CPU_WriteMem(644 bytes @ 0x2000017C)
TF2E8 000:782.221 - 12.540ms returns 0x284
TF2E8 000:782.262 JLINK_WriteMem(0x20000400, 0x17C Bytes, ...)
TF2E8 000:782.316   Data:  01 98 84 42 85 DB DA 48 40 88 40 1E 83 B2 D8 48 ...
TF2E8 000:782.352   CPU_WriteMem(380 bytes @ 0x20000400)
TF2E8 000:790.236 - 7.970ms returns 0x17C
TF2E8 000:790.324 JLINK_HasError()
TF2E8 000:790.358 JLINK_WriteReg(R0, 0x08000800)
TF2E8 000:790.388 - 0.031ms returns 0
TF2E8 000:790.408 JLINK_WriteReg(R1, 0x00000400)
TF2E8 000:790.426 - 0.018ms returns 0
TF2E8 000:790.445 JLINK_WriteReg(R2, 0x2000017C)
TF2E8 000:790.461 - 0.016ms returns 0
TF2E8 000:790.480 JLINK_WriteReg(R3, 0x00000000)
TF2E8 000:790.496 - 0.016ms returns 0
TF2E8 000:790.515 JLINK_WriteReg(R4, 0x00000000)
TF2E8 000:790.531 - 0.016ms returns 0
TF2E8 000:790.550 JLINK_WriteReg(R5, 0x00000000)
TF2E8 000:790.566 - 0.016ms returns 0
TF2E8 000:790.585 JLINK_WriteReg(R6, 0x00000000)
TF2E8 000:790.601 - 0.016ms returns 0
TF2E8 000:790.620 JLINK_WriteReg(R7, 0x00000000)
TF2E8 000:790.636 - 0.016ms returns 0
TF2E8 000:790.655 JLINK_WriteReg(R8, 0x00000000)
TF2E8 000:790.671 - 0.016ms returns 0
TF2E8 000:790.689 JLINK_WriteReg(R9, 0x20000174)
TF2E8 000:790.706 - 0.016ms returns 0
TF2E8 000:790.725 JLINK_WriteReg(R10, 0x00000000)
TF2E8 000:790.742 - 0.016ms returns 0
TF2E8 000:790.761 JLINK_WriteReg(R11, 0x00000000)
TF2E8 000:790.777 - 0.016ms returns 0
TF2E8 000:790.795 JLINK_WriteReg(R12, 0x00000000)
TF2E8 000:790.812 - 0.017ms returns 0
TF2E8 000:790.990 JLINK_WriteReg(R13 (SP), 0x20001000)
TF2E8 000:791.010 - 0.020ms returns 0
TF2E8 000:791.030 JLINK_WriteReg(R14, 0x20000001)
TF2E8 000:791.046 - 0.016ms returns 0
TF2E8 000:791.066 JLINK_WriteReg(R15 (PC), 0x20000102)
TF2E8 000:791.083 - 0.017ms returns 0
TF2E8 000:791.102 JLINK_WriteReg(XPSR, 0x01000000)
TF2E8 000:791.119 - 0.017ms returns 0
TF2E8 000:791.138 JLINK_WriteReg(MSP, 0x20001000)
TF2E8 000:791.155 - 0.016ms returns 0
TF2E8 000:791.174 JLINK_WriteReg(PSP, 0x20001000)
TF2E8 000:791.191 - 0.016ms returns 0
TF2E8 000:791.210 JLINK_WriteReg(CFBP, 0x00000000)
TF2E8 000:791.227 - 0.016ms returns 0
TF2E8 000:791.249 JLINK_SetBPEx(Addr = 0x20000000, Type = 0xFFFFFFF2)
TF2E8 000:791.270 - 0.022ms returns 0x00000007
TF2E8 000:791.290 JLINK_Go()
TF2E8 000:791.332   CPU_ReadMem(4 bytes @ 0xE0001000)
TF2E8 000:801.289 - 9.996ms 
TF2E8 000:801.399 JLINK_IsHalted()
TF2E8 000:802.619 - 1.216ms returns FALSE
TF2E8 000:802.744 JLINK_HasError()
TF2E8 000:811.344 JLINK_IsHalted()
TF2E8 000:812.595 - 1.250ms returns FALSE
TF2E8 000:812.645 JLINK_HasError()
TF2E8 000:814.314 JLINK_IsHalted()
TF2E8 000:815.295 - 0.980ms returns FALSE
TF2E8 000:815.316 JLINK_HasError()
TF2E8 000:817.397 JLINK_IsHalted()
TF2E8 000:818.506 - 1.109ms returns FALSE
TF2E8 000:818.516 JLINK_HasError()
TF2E8 000:824.375 JLINK_IsHalted()
TF2E8 000:825.781 - 1.404ms returns FALSE
TF2E8 000:825.826 JLINK_HasError()
TF2E8 000:827.290 JLINK_IsHalted()
TF2E8 000:828.359 - 1.068ms returns FALSE
TF2E8 000:828.486 JLINK_HasError()
TF2E8 000:830.324 JLINK_IsHalted()
TF2E8 000:831.489 - 1.162ms returns FALSE
TF2E8 000:831.566 JLINK_HasError()
TF2E8 000:833.313 JLINK_IsHalted()
TF2E8 000:842.237   CPU_ReadMem(2 bytes @ 0x20000000)
TF2E8 000:843.163 - 9.848ms returns TRUE
TF2E8 000:843.183 JLINK_ReadReg(R15 (PC))
TF2E8 000:843.192 - 0.009ms returns 0x20000000
TF2E8 000:843.198 JLINK_ClrBPEx(BPHandle = 0x00000007)
TF2E8 000:843.204 - 0.006ms returns 0x00
TF2E8 000:843.210 JLINK_ReadReg(R0)
TF2E8 000:843.215 - 0.005ms returns 0x00000000
TF2E8 000:844.298 JLINK_WriteMem(0x2000017C, 0x284 Bytes, ...)
TF2E8 000:844.328   Data:  1E E0 10 2C 0D DD 10 21 28 78 8D E8 83 00 4A 46 ...
TF2E8 000:844.351   CPU_WriteMem(644 bytes @ 0x2000017C)
TF2E8 000:856.605 - 12.305ms returns 0x284
TF2E8 000:856.659 JLINK_WriteMem(0x20000400, 0x17C Bytes, ...)
TF2E8 000:856.666   Data:  0A 98 06 F1 01 0C 0C FB 0A 8C AC F1 01 0C 1F FA ...
TF2E8 000:856.691   CPU_WriteMem(380 bytes @ 0x20000400)
TF2E8 000:864.534 - 7.871ms returns 0x17C
TF2E8 000:864.657 JLINK_HasError()
TF2E8 000:864.883 JLINK_WriteReg(R0, 0x08000C00)
TF2E8 000:864.918 - 0.036ms returns 0
TF2E8 000:864.938 JLINK_WriteReg(R1, 0x00000400)
TF2E8 000:864.955 - 0.017ms returns 0
TF2E8 000:864.974 JLINK_WriteReg(R2, 0x2000017C)
TF2E8 000:864.990 - 0.016ms returns 0
TF2E8 000:865.009 JLINK_WriteReg(R3, 0x00000000)
TF2E8 000:865.025 - 0.016ms returns 0
TF2E8 000:865.044 JLINK_WriteReg(R4, 0x00000000)
TF2E8 000:865.060 - 0.016ms returns 0
TF2E8 000:865.078 JLINK_WriteReg(R5, 0x00000000)
TF2E8 000:865.094 - 0.016ms returns 0
TF2E8 000:865.113 JLINK_WriteReg(R6, 0x00000000)
TF2E8 000:865.129 - 0.016ms returns 0
TF2E8 000:865.147 JLINK_WriteReg(R7, 0x00000000)
TF2E8 000:865.163 - 0.016ms returns 0
TF2E8 000:865.182 JLINK_WriteReg(R8, 0x00000000)
TF2E8 000:865.199 - 0.017ms returns 0
TF2E8 000:865.218 JLINK_WriteReg(R9, 0x20000174)
TF2E8 000:865.234 - 0.016ms returns 0
TF2E8 000:865.253 JLINK_WriteReg(R10, 0x00000000)
TF2E8 000:865.270 - 0.017ms returns 0
TF2E8 000:865.289 JLINK_WriteReg(R11, 0x00000000)
TF2E8 000:865.305 - 0.016ms returns 0
TF2E8 000:865.324 JLINK_WriteReg(R12, 0x00000000)
TF2E8 000:865.341 - 0.016ms returns 0
TF2E8 000:865.360 JLINK_WriteReg(R13 (SP), 0x20001000)
TF2E8 000:865.380 - 0.020ms returns 0
TF2E8 000:865.399 JLINK_WriteReg(R14, 0x20000001)
TF2E8 000:865.415 - 0.016ms returns 0
TF2E8 000:865.434 JLINK_WriteReg(R15 (PC), 0x20000102)
TF2E8 000:865.450 - 0.016ms returns 0
TF2E8 000:865.470 JLINK_WriteReg(XPSR, 0x01000000)
TF2E8 000:865.690 - 0.221ms returns 0
TF2E8 000:865.709 JLINK_WriteReg(MSP, 0x20001000)
TF2E8 000:865.726 - 0.016ms returns 0
TF2E8 000:865.744 JLINK_WriteReg(PSP, 0x20001000)
TF2E8 000:865.761 - 0.016ms returns 0
TF2E8 000:865.779 JLINK_WriteReg(CFBP, 0x00000000)
TF2E8 000:865.795 - 0.016ms returns 0
TF2E8 000:865.816 JLINK_SetBPEx(Addr = 0x20000000, Type = 0xFFFFFFF2)
TF2E8 000:865.838 - 0.023ms returns 0x00000008
TF2E8 000:865.858 JLINK_Go()
TF2E8 000:865.902   CPU_ReadMem(4 bytes @ 0xE0001000)
TF2E8 000:875.296 - 9.433ms 
TF2E8 000:875.389 JLINK_IsHalted()
TF2E8 000:876.572 - 1.183ms returns FALSE
TF2E8 000:876.598 JLINK_HasError()
TF2E8 000:885.931 JLINK_IsHalted()
TF2E8 000:887.333 - 1.400ms returns FALSE
TF2E8 000:887.363 JLINK_HasError()
TF2E8 000:888.911 JLINK_IsHalted()
TF2E8 000:890.041 - 1.130ms returns FALSE
TF2E8 000:890.183 JLINK_HasError()
TF2E8 000:891.902 JLINK_IsHalted()
TF2E8 000:893.117 - 1.216ms returns FALSE
TF2E8 000:893.127 JLINK_HasError()
TF2E8 000:894.875 JLINK_IsHalted()
TF2E8 000:895.963 - 1.085ms returns FALSE
TF2E8 000:896.013 JLINK_HasError()
TF2E8 000:897.909 JLINK_IsHalted()
TF2E8 000:899.048 - 1.138ms returns FALSE
TF2E8 000:899.078 JLINK_HasError()
TF2E8 000:900.911 JLINK_IsHalted()
TF2E8 000:902.177 - 1.264ms returns FALSE
TF2E8 000:902.206 JLINK_HasError()
TF2E8 000:906.877 JLINK_IsHalted()
TF2E8 000:915.878   CPU_ReadMem(2 bytes @ 0x20000000)
TF2E8 000:916.974 - 10.095ms returns TRUE
TF2E8 000:917.017 JLINK_ReadReg(R15 (PC))
TF2E8 000:917.029 - 0.011ms returns 0x20000000
TF2E8 000:917.102 JLINK_ClrBPEx(BPHandle = 0x00000008)
TF2E8 000:917.110 - 0.008ms returns 0x00
TF2E8 000:917.118 JLINK_ReadReg(R0)
TF2E8 000:917.124 - 0.006ms returns 0x00000000
TF2E8 000:917.843 JLINK_WriteMem(0x2000017C, 0x284 Bytes, ...)
TF2E8 000:917.864   Data:  05 0C 1F FA 8C F1 06 EB 04 0C 1F FA 8C F0 CD F8 ...
TF2E8 000:917.885   CPU_WriteMem(644 bytes @ 0x2000017C)
TF2E8 000:930.059 - 12.215ms returns 0x284
TF2E8 000:930.098 JLINK_WriteMem(0x20000400, 0x17C Bytes, ...)
TF2E8 000:930.104   Data:  5B 49 6E 66 5D 20 54 69 6D 65 20 55 70 64 61 74 ...
TF2E8 000:930.125   CPU_WriteMem(380 bytes @ 0x20000400)
TF2E8 000:937.979 - 7.879ms returns 0x17C
TF2E8 000:938.017 JLINK_HasError()
TF2E8 000:938.025 JLINK_WriteReg(R0, 0x08001000)
TF2E8 000:938.035 - 0.010ms returns 0
TF2E8 000:938.040 JLINK_WriteReg(R1, 0x00000400)
TF2E8 000:938.044 - 0.004ms returns 0
TF2E8 000:938.048 JLINK_WriteReg(R2, 0x2000017C)
TF2E8 000:938.052 - 0.003ms returns 0
TF2E8 000:938.056 JLINK_WriteReg(R3, 0x00000000)
TF2E8 000:938.060 - 0.004ms returns 0
TF2E8 000:938.064 JLINK_WriteReg(R4, 0x00000000)
TF2E8 000:938.068 - 0.003ms returns 0
TF2E8 000:938.072 JLINK_WriteReg(R5, 0x00000000)
TF2E8 000:938.076 - 0.003ms returns 0
TF2E8 000:938.080 JLINK_WriteReg(R6, 0x00000000)
TF2E8 000:938.084 - 0.003ms returns 0
TF2E8 000:938.088 JLINK_WriteReg(R7, 0x00000000)
TF2E8 000:938.092 - 0.003ms returns 0
TF2E8 000:938.097 JLINK_WriteReg(R8, 0x00000000)
TF2E8 000:938.101 - 0.003ms returns 0
TF2E8 000:938.105 JLINK_WriteReg(R9, 0x20000174)
TF2E8 000:938.109 - 0.003ms returns 0
TF2E8 000:938.113 JLINK_WriteReg(R10, 0x00000000)
TF2E8 000:938.117 - 0.003ms returns 0
TF2E8 000:938.121 JLINK_WriteReg(R11, 0x00000000)
TF2E8 000:938.125 - 0.003ms returns 0
TF2E8 000:938.130 JLINK_WriteReg(R12, 0x00000000)
TF2E8 000:938.134 - 0.003ms returns 0
TF2E8 000:938.138 JLINK_WriteReg(R13 (SP), 0x20001000)
TF2E8 000:938.142 - 0.004ms returns 0
TF2E8 000:938.147 JLINK_WriteReg(R14, 0x20000001)
TF2E8 000:938.151 - 0.003ms returns 0
TF2E8 000:938.155 JLINK_WriteReg(R15 (PC), 0x20000102)
TF2E8 000:938.159 - 0.004ms returns 0
TF2E8 000:938.163 JLINK_WriteReg(XPSR, 0x01000000)
TF2E8 000:938.167 - 0.003ms returns 0
TF2E8 000:938.172 JLINK_WriteReg(MSP, 0x20001000)
TF2E8 000:938.175 - 0.003ms returns 0
TF2E8 000:938.180 JLINK_WriteReg(PSP, 0x20001000)
TF2E8 000:938.183 - 0.003ms returns 0
TF2E8 000:938.188 JLINK_WriteReg(CFBP, 0x00000000)
TF2E8 000:938.191 - 0.003ms returns 0
TF2E8 000:938.207 JLINK_SetBPEx(Addr = 0x20000000, Type = 0xFFFFFFF2)
TF2E8 000:938.212 - 0.006ms returns 0x00000009
TF2E8 000:938.217 JLINK_Go()
TF2E8 000:938.229   CPU_ReadMem(4 bytes @ 0xE0001000)
TF2E8 000:947.505 - 9.286ms 
TF2E8 000:947.543 JLINK_IsHalted()
TF2E8 000:948.590 - 1.046ms returns FALSE
TF2E8 000:948.619 JLINK_HasError()
TF2E8 000:951.856 JLINK_IsHalted()
TF2E8 000:952.981 - 1.121ms returns FALSE
TF2E8 000:953.058 JLINK_HasError()
TF2E8 000:954.906 JLINK_IsHalted()
TF2E8 000:956.249 - 1.342ms returns FALSE
TF2E8 000:956.272 JLINK_HasError()
TF2E8 000:957.925 JLINK_IsHalted()
TF2E8 000:958.971 - 1.046ms returns FALSE
TF2E8 000:958.984 JLINK_HasError()
TF2E8 000:960.874 JLINK_IsHalted()
TF2E8 000:961.892 - 1.016ms returns FALSE
TF2E8 000:961.926 JLINK_HasError()
TF2E8 000:963.848 JLINK_IsHalted()
TF2E8 000:964.989 - 1.140ms returns FALSE
TF2E8 000:965.007 JLINK_HasError()
TF2E8 000:966.907 JLINK_IsHalted()
TF2E8 000:968.154 - 1.245ms returns FALSE
TF2E8 000:968.237 JLINK_HasError()
TF2E8 000:969.936 JLINK_IsHalted()
TF2E8 000:970.987 - 1.051ms returns FALSE
TF2E8 000:971.002 JLINK_HasError()
TF2E8 000:972.858 JLINK_IsHalted()
TF2E8 000:973.972 - 1.111ms returns FALSE
TF2E8 000:974.182 JLINK_HasError()
TF2E8 000:975.940 JLINK_IsHalted()
TF2E8 000:977.077 - 1.138ms returns FALSE
TF2E8 000:977.095 JLINK_HasError()
TF2E8 000:979.949 JLINK_IsHalted()
TF2E8 000:989.380   CPU_ReadMem(2 bytes @ 0x20000000)
TF2E8 000:990.883 - 10.932ms returns TRUE
TF2E8 000:990.956 JLINK_ReadReg(R15 (PC))
TF2E8 000:990.989 - 0.032ms returns 0x20000000
TF2E8 000:991.011 JLINK_ClrBPEx(BPHandle = 0x00000009)
TF2E8 000:991.030 - 0.019ms returns 0x00
TF2E8 000:991.051 JLINK_ReadReg(R0)
TF2E8 000:991.069 - 0.017ms returns 0x00000000
TF2E8 000:992.125 JLINK_WriteMem(0x2000017C, 0x284 Bytes, ...)
TF2E8 000:992.152   Data:  00 90 00 98 01 28 44 D1 83 48 00 68 40 F0 10 00 ...
TF2E8 000:992.181   CPU_WriteMem(644 bytes @ 0x2000017C)
TF2E8 001:004.506 - 12.380ms returns 0x284
TF2E8 001:004.545 JLINK_WriteMem(0x20000400, 0x17C Bytes, ...)
TF2E8 001:004.551   Data:  DA FB AC E0 EE 48 84 42 08 D1 01 21 04 20 0C F0 ...
TF2E8 001:004.570   CPU_WriteMem(380 bytes @ 0x20000400)
TF2E8 001:012.357 - 7.810ms returns 0x17C
TF2E8 001:012.393 JLINK_HasError()
TF2E8 001:012.464 JLINK_WriteReg(R0, 0x08001400)
TF2E8 001:012.476 - 0.012ms returns 0
TF2E8 001:012.483 JLINK_WriteReg(R1, 0x00000400)
TF2E8 001:012.489 - 0.005ms returns 0
TF2E8 001:012.495 JLINK_WriteReg(R2, 0x2000017C)
TF2E8 001:012.501 - 0.005ms returns 0
TF2E8 001:012.507 JLINK_WriteReg(R3, 0x00000000)
TF2E8 001:012.513 - 0.005ms returns 0
TF2E8 001:012.519 JLINK_WriteReg(R4, 0x00000000)
TF2E8 001:012.525 - 0.005ms returns 0
TF2E8 001:012.532 JLINK_WriteReg(R5, 0x00000000)
TF2E8 001:012.538 - 0.005ms returns 0
TF2E8 001:012.544 JLINK_WriteReg(R6, 0x00000000)
TF2E8 001:012.550 - 0.006ms returns 0
TF2E8 001:012.556 JLINK_WriteReg(R7, 0x00000000)
TF2E8 001:012.562 - 0.005ms returns 0
TF2E8 001:012.568 JLINK_WriteReg(R8, 0x00000000)
TF2E8 001:012.574 - 0.005ms returns 0
TF2E8 001:012.580 JLINK_WriteReg(R9, 0x20000174)
TF2E8 001:012.586 - 0.005ms returns 0
TF2E8 001:012.592 JLINK_WriteReg(R10, 0x00000000)
TF2E8 001:012.598 - 0.005ms returns 0
TF2E8 001:012.604 JLINK_WriteReg(R11, 0x00000000)
TF2E8 001:012.610 - 0.005ms returns 0
TF2E8 001:012.616 JLINK_WriteReg(R12, 0x00000000)
TF2E8 001:012.622 - 0.005ms returns 0
TF2E8 001:012.629 JLINK_WriteReg(R13 (SP), 0x20001000)
TF2E8 001:012.635 - 0.006ms returns 0
TF2E8 001:012.641 JLINK_WriteReg(R14, 0x20000001)
TF2E8 001:012.647 - 0.005ms returns 0
TF2E8 001:012.654 JLINK_WriteReg(R15 (PC), 0x20000102)
TF2E8 001:012.659 - 0.005ms returns 0
TF2E8 001:012.666 JLINK_WriteReg(XPSR, 0x01000000)
TF2E8 001:012.671 - 0.005ms returns 0
TF2E8 001:012.678 JLINK_WriteReg(MSP, 0x20001000)
TF2E8 001:012.684 - 0.006ms returns 0
TF2E8 001:012.690 JLINK_WriteReg(PSP, 0x20001000)
TF2E8 001:012.696 - 0.005ms returns 0
TF2E8 001:012.703 JLINK_WriteReg(CFBP, 0x00000000)
TF2E8 001:012.714 - 0.011ms returns 0
TF2E8 001:012.724 JLINK_SetBPEx(Addr = 0x20000000, Type = 0xFFFFFFF2)
TF2E8 001:012.731 - 0.008ms returns 0x0000000A
TF2E8 001:012.738 JLINK_Go()
TF2E8 001:012.752   CPU_ReadMem(4 bytes @ 0xE0001000)
TF2E8 001:022.167 - 9.428ms 
TF2E8 001:022.177 JLINK_IsHalted()
TF2E8 001:023.208 - 1.030ms returns FALSE
TF2E8 001:023.217 JLINK_HasError()
TF2E8 001:026.566 JLINK_IsHalted()
TF2E8 001:027.652 - 1.084ms returns FALSE
TF2E8 001:027.683 JLINK_HasError()
TF2E8 001:029.585 JLINK_IsHalted()
TF2E8 001:030.862 - 1.275ms returns FALSE
TF2E8 001:030.951 JLINK_HasError()
TF2E8 001:032.600 JLINK_IsHalted()
TF2E8 001:033.696 - 1.095ms returns FALSE
TF2E8 001:033.732 JLINK_HasError()
TF2E8 001:035.596 JLINK_IsHalted()
TF2E8 001:036.685 - 1.088ms returns FALSE
TF2E8 001:036.707 JLINK_HasError()
TF2E8 001:038.533 JLINK_IsHalted()
TF2E8 001:039.722 - 1.186ms returns FALSE
TF2E8 001:039.753 JLINK_HasError()
TF2E8 001:041.610 JLINK_IsHalted()
TF2E8 001:042.674 - 1.064ms returns FALSE
TF2E8 001:042.690 JLINK_HasError()
TF2E8 001:044.611 JLINK_IsHalted()
TF2E8 001:045.790 - 1.179ms returns FALSE
TF2E8 001:045.823 JLINK_HasError()
TF2E8 001:047.616 JLINK_IsHalted()
TF2E8 001:048.732 - 1.113ms returns FALSE
TF2E8 001:048.755 JLINK_HasError()
TF2E8 001:050.622 JLINK_IsHalted()
TF2E8 001:051.672 - 1.052ms returns FALSE
TF2E8 001:051.686 JLINK_HasError()
TF2E8 001:053.623 JLINK_IsHalted()
TF2E8 001:062.750   CPU_ReadMem(2 bytes @ 0x20000000)
TF2E8 001:063.924 - 10.297ms returns TRUE
TF2E8 001:063.959 JLINK_ReadReg(R15 (PC))
TF2E8 001:063.966 - 0.007ms returns 0x20000000
TF2E8 001:063.971 JLINK_ClrBPEx(BPHandle = 0x0000000A)
TF2E8 001:063.975 - 0.004ms returns 0x00
TF2E8 001:063.980 JLINK_ReadReg(R0)
TF2E8 001:063.985 - 0.004ms returns 0x00000000
TF2E8 001:064.508 JLINK_WriteMem(0x2000017C, 0x284 Bytes, ...)
TF2E8 001:064.521   Data:  90 4B 98 42 02 D0 90 4B 98 42 04 D1 4F F6 8F 73 ...
TF2E8 001:064.535   CPU_WriteMem(644 bytes @ 0x2000017C)
TF2E8 001:076.731 - 12.221ms returns 0x284
TF2E8 001:076.759 JLINK_WriteMem(0x20000400, 0x17C Bytes, ...)
TF2E8 001:076.765   Data:  2A 43 4D F6 FF 75 2B 40 0D 89 06 EA 05 35 2B 43 ...
TF2E8 001:076.783   CPU_WriteMem(380 bytes @ 0x20000400)
TF2E8 001:084.627 - 7.867ms returns 0x17C
TF2E8 001:084.650 JLINK_HasError()
TF2E8 001:084.658 JLINK_WriteReg(R0, 0x08001800)
TF2E8 001:084.672 - 0.010ms returns 0
TF2E8 001:084.676 JLINK_WriteReg(R1, 0x00000400)
TF2E8 001:084.681 - 0.004ms returns 0
TF2E8 001:084.686 JLINK_WriteReg(R2, 0x2000017C)
TF2E8 001:084.690 - 0.004ms returns 0
TF2E8 001:084.694 JLINK_WriteReg(R3, 0x00000000)
TF2E8 001:084.698 - 0.004ms returns 0
TF2E8 001:084.703 JLINK_WriteReg(R4, 0x00000000)
TF2E8 001:084.707 - 0.004ms returns 0
TF2E8 001:084.712 JLINK_WriteReg(R5, 0x00000000)
TF2E8 001:084.716 - 0.004ms returns 0
TF2E8 001:084.721 JLINK_WriteReg(R6, 0x00000000)
TF2E8 001:084.725 - 0.004ms returns 0
TF2E8 001:084.729 JLINK_WriteReg(R7, 0x00000000)
TF2E8 001:084.733 - 0.004ms returns 0
TF2E8 001:084.738 JLINK_WriteReg(R8, 0x00000000)
TF2E8 001:084.742 - 0.004ms returns 0
TF2E8 001:084.747 JLINK_WriteReg(R9, 0x20000174)
TF2E8 001:084.751 - 0.004ms returns 0
TF2E8 001:084.756 JLINK_WriteReg(R10, 0x00000000)
TF2E8 001:084.760 - 0.004ms returns 0
TF2E8 001:084.767 JLINK_WriteReg(R11, 0x00000000)
TF2E8 001:084.771 - 0.004ms returns 0
TF2E8 001:084.776 JLINK_WriteReg(R12, 0x00000000)
TF2E8 001:084.780 - 0.004ms returns 0
TF2E8 001:084.785 JLINK_WriteReg(R13 (SP), 0x20001000)
TF2E8 001:084.789 - 0.004ms returns 0
TF2E8 001:084.794 JLINK_WriteReg(R14, 0x20000001)
TF2E8 001:084.799 - 0.004ms returns 0
TF2E8 001:084.804 JLINK_WriteReg(R15 (PC), 0x20000102)
TF2E8 001:084.808 - 0.004ms returns 0
TF2E8 001:084.813 JLINK_WriteReg(XPSR, 0x01000000)
TF2E8 001:084.818 - 0.004ms returns 0
TF2E8 001:084.822 JLINK_WriteReg(MSP, 0x20001000)
TF2E8 001:084.829 - 0.006ms returns 0
TF2E8 001:084.834 JLINK_WriteReg(PSP, 0x20001000)
TF2E8 001:084.839 - 0.004ms returns 0
TF2E8 001:084.844 JLINK_WriteReg(CFBP, 0x00000000)
TF2E8 001:084.858 - 0.014ms returns 0
TF2E8 001:084.864 JLINK_SetBPEx(Addr = 0x20000000, Type = 0xFFFFFFF2)
TF2E8 001:084.871 - 0.006ms returns 0x0000000B
TF2E8 001:084.876 JLINK_Go()
TF2E8 001:084.891   CPU_ReadMem(4 bytes @ 0xE0001000)
TF2E8 001:094.499 - 9.622ms 
TF2E8 001:094.538 JLINK_IsHalted()
TF2E8 001:095.597 - 1.057ms returns FALSE
TF2E8 001:095.674 JLINK_HasError()
TF2E8 001:098.844 JLINK_IsHalted()
TF2E8 001:100.126 - 1.280ms returns FALSE
TF2E8 001:100.196 JLINK_HasError()
TF2E8 001:101.781 JLINK_IsHalted()
TF2E8 001:102.927 - 1.145ms returns FALSE
TF2E8 001:102.941 JLINK_HasError()
TF2E8 001:104.248 JLINK_IsHalted()
TF2E8 001:105.490 - 1.240ms returns FALSE
TF2E8 001:105.522 JLINK_HasError()
TF2E8 001:107.227 JLINK_IsHalted()
